
T8F18 000:592 SEGGER J-Link V4.86b Log File (0001ms, 0265ms total)
T8F18 000:592 DLL Compiled: Jun 27 2014 20:11:00 (0001ms, 0265ms total)
T8F18 000:592 Logging started @ 2019-07-27 22:58 (0001ms, 0265ms total)
T8F18 000:593 JLINK_SetWarnOutHandler(...) (0000ms, 0265ms total)
T8F18 000:593 JLINK_OpenEx(...)
Firmware: J-Link ARM-OB STM32 compiled Aug 22 2012 19:52:04
Hardware: V7.00
S/N: 20090928
Feature(s): RDI,FlashDL,FlashBP,JFlash,GDBFull  returns O.K. (0263ms, 0528ms total)
T8F18 000:856 JLINK_SetErrorOutHandler(...) (0000ms, 0528ms total)
T8F18 000:856 JLINK_ExecCommand("ProjectFile = "E:\2019-Robomaster\ProgramBase\2019IFR_Preliminary-Sentry\KEIL\JLinkSettings.ini"", ...)  returns 0x00 (0001ms, 0529ms total)
T8F18 000:857 JLINK_ExecCommand("Device = STM32F427II", ...)Device "STM32F427II" selected (2048 KB flash, 192 KB RAM).  returns 0x00 (0001ms, 0530ms total)
T8F18 000:858 JLINK_ExecCommand("DisableConnectionTimeout", ...)  returns 0x01 (0000ms, 0530ms total)
T8F18 000:858 JLINK_GetHardwareVersion()  returns 0x11170 (0000ms, 0530ms total)
T8F18 000:858 JLINK_GetDLLVersion()  returns 48602 (0000ms, 0530ms total)
T8F18 000:858 JLINK_GetFirmwareString(...) (0000ms, 0530ms total)
T8F18 000:861 JLINK_GetDLLVersion()  returns 48602 (0000ms, 0530ms total)
T8F18 000:861 JLINK_GetCompileDateTime() (0000ms, 0530ms total)
T8F18 000:861 JLINK_GetFirmwareString(...) (0000ms, 0530ms total)
T8F18 000:862 JLINK_GetHardwareVersion()  returns 0x11170 (0000ms, 0530ms total)
T8F18 000:862 JLINK_TIF_Select(JLINKARM_TIF_SWD)  returns 0x00 (0001ms, 0531ms total)
T8F18 000:863 JLINK_SetSpeed(20000) (0000ms, 0531ms total)
T8F18 000:863 JLINK_GetId() >0x108 TIF>Found SWD-DP with ID 0x2BA01477 >0x0D TIF> >0x28 TIF> >0x0D TIF> >0x28 TIF> >0x0D TIF> >0x21 TIF> >0x0D TIF> >0x28 TIF> >0x0D TIF> >0x28 TIF> >0x0D TIF> >0x28 TIF> >0x0D TIF> >0x21 TIF> >0x0D TIF> >0x21 TIF> >0x0D TIF> >0x28 TIF> >0x0D TIF> >0x21 TIF> >0x0D TIF> >0x21 TIF> >0x0D TIF> >0x28 TIF> >0x0D TIF> >0x21 TIF> >0x0D TIF> >0x21 TIF> >0x108 TIF>Found SWD-DP with ID 0x2BA01477 >0x0D TIF> >0x21 TIF> >0x0D TIF> >0x28 TIF> >0x0D TIF> >0x28 TIF> >0x0D TIF> >0x21 TIF>
 >0x0D TIF> >0x28 TIF> >0x0D TIF> >0x21 TIF> >0x0D TIF> >0x21 TIF> >0x0D TIF> >0x21 TIF> >0x0D TIF> >0x21 TIF> >0x0D TIF> >0x28 TIF> >0x0D TIF> >0x28 TIF> >0x0D TIF> >0x21 TIF> >0x0D TIF> >0x28 TIF> >0x0D TIF> >0x28 TIF> >0x0D TIF> >0x28 TIF> >0x0D TIF> >0x21 TIF> >0x0D TIF> >0x21 TIF> >0x0D TIF> >0x28 TIF> >0x0D TIF> >0x21 TIF> >0x0D TIF> >0x21 TIF>Found Cortex-M4 r0p1, Little endian. -- CPU_WriteMem(4 bytes @ 0xE0002000) -- CPU_ReadMem(4 bytes @ 0xE000EDF0) -- CPU_ReadMem(4 bytes @ 0xE0002000)
FPUnit: 6 code (BP) slots and 2 literal slots -- CPU_ReadMem(4 bytes @ 0xE000EDFC) -- CPU_ReadMem(4 bytes @ 0xE0001000) -- CPU_WriteMem(4 bytes @ 0xE0001000) -- CPU_ReadMem(4 bytes @ 0xE00FF010)TPIU fitted. -- CPU_ReadMem(4 bytes @ 0xE00FF014)ETM fitted. -- CPU_ReadMem(4 bytes @ 0xE00FF018) >0x0D TIF> >0x21 TIF>  returns 0x2BA01477 (0028ms, 0559ms total)
T8F18 000:891 JLINK_GetDLLVersion()  returns 48602 (0000ms, 0559ms total)
T8F18 000:891 JLINK_CORE_GetFound()  returns 0xE0000FF (0000ms, 0559ms total)
T8F18 000:892 JLINK_ReadMem (0xE00FF000, 0x0020 Bytes, ...) -- CPU is running -- CPU_ReadMem(32 bytes @ 0xE00FF000) - Data: 03 F0 F0 FF 03 20 F0 FF 03 30 F0 FF 03 10 F0 FF ...  returns 0x00 (0001ms, 0560ms total)
T8F18 000:893 JLINK_ReadMem (0xE000EFF0, 0x0010 Bytes, ...) -- CPU is running -- CPU_ReadMem(16 bytes @ 0xE000EFF0) - Data: 0D 00 00 00 E0 00 00 00 05 00 00 00 B1 00 00 00  returns 0x00 (0000ms, 0560ms total)
T8F18 000:893 JLINK_ReadMem (0xE000EFD0, 0x0020 Bytes, ...) -- CPU is running -- CPU_ReadMem(32 bytes @ 0xE000EFD0) - Data: 04 00 00 00 00 00 00 00 00 00 00 00 00 00 00 00 ...  returns 0x00 (0001ms, 0561ms total)
T8F18 000:894 JLINK_ReadMem (0xE0001FF0, 0x0010 Bytes, ...) -- CPU is running -- CPU_ReadMem(16 bytes @ 0xE0001FF0) - Data: 0D 00 00 00 E0 00 00 00 05 00 00 00 B1 00 00 00  returns 0x00 (0001ms, 0562ms total)
T8F18 000:895 JLINK_ReadMem (0xE0001FD0, 0x0020 Bytes, ...) -- CPU is running -- CPU_ReadMem(32 bytes @ 0xE0001FD0) - Data: 04 00 00 00 00 00 00 00 00 00 00 00 00 00 00 00 ...  returns 0x00 (0001ms, 0563ms total)
T8F18 000:896 JLINK_ReadMem (0xE0002FF0, 0x0010 Bytes, ...) -- CPU is running -- CPU_ReadMem(16 bytes @ 0xE0002FF0) - Data: 0D 00 00 00 E0 00 00 00 05 00 00 00 B1 00 00 00  returns 0x00 (0000ms, 0563ms total)
T8F18 000:896 JLINK_ReadMem (0xE0002FD0, 0x0020 Bytes, ...) -- CPU is running -- CPU_ReadMem(32 bytes @ 0xE0002FD0) - Data: 04 00 00 00 00 00 00 00 00 00 00 00 00 00 00 00 ...  returns 0x00 (0001ms, 0564ms total)
T8F18 000:897 JLINK_ReadMem (0xE0000FF0, 0x0010 Bytes, ...) -- CPU is running -- CPU_ReadMem(16 bytes @ 0xE0000FF0) - Data: 0D 00 00 00 E0 00 00 00 05 00 00 00 B1 00 00 00  returns 0x00 (0001ms, 0565ms total)
T8F18 000:898 JLINK_ReadMem (0xE0000FD0, 0x0020 Bytes, ...) -- CPU is running -- CPU_ReadMem(32 bytes @ 0xE0000FD0) - Data: 04 00 00 00 00 00 00 00 00 00 00 00 00 00 00 00 ...  returns 0x00 (0001ms, 0566ms total)
T8F18 000:899 JLINK_ReadMem (0xE0040FF0, 0x0010 Bytes, ...) -- CPU is running -- CPU_ReadMem(16 bytes @ 0xE0040FF0) - Data: 0D 00 00 00 90 00 00 00 05 00 00 00 B1 00 00 00  returns 0x00 (0000ms, 0566ms total)
T8F18 000:899 JLINK_ReadMem (0xE0040FD0, 0x0020 Bytes, ...) -- CPU is running -- CPU_ReadMem(32 bytes @ 0xE0040FD0) - Data: 04 00 00 00 00 00 00 00 00 00 00 00 00 00 00 00 ...  returns 0x00 (0001ms, 0567ms total)
T8F18 000:900 JLINK_ReadMem (0xE0041FF0, 0x0010 Bytes, ...) -- CPU is running -- CPU_ReadMem(16 bytes @ 0xE0041FF0) - Data: 0D 00 00 00 90 00 00 00 05 00 00 00 B1 00 00 00  returns 0x00 (0001ms, 0568ms total)
T8F18 000:901 JLINK_ReadMem (0xE0041FD0, 0x0020 Bytes, ...) -- CPU is running -- CPU_ReadMem(32 bytes @ 0xE0041FD0) - Data: 04 00 00 00 00 00 00 00 00 00 00 00 00 00 00 00 ...  returns 0x00 (0000ms, 0568ms total)
T8F18 000:902 JLINK_ReadMemU32(0xE000EF40, 0x0001 Items, ...) -- CPU is running -- CPU_ReadMem(4 bytes @ 0xE000EF40) - Data: 21 00 11 10  returns 0x01 (0000ms, 0568ms total)
T8F18 000:902 JLINK_ReadMemU32(0xE000EF44, 0x0001 Items, ...) -- CPU is running -- CPU_ReadMem(4 bytes @ 0xE000EF44) - Data: 11 00 00 11  returns 0x01 (0001ms, 0569ms total)
T8F18 000:903 JLINK_ReadMemU32(0xE000ED00, 0x0001 Items, ...) -- CPU is running -- CPU_ReadMem(4 bytes @ 0xE000ED00) - Data: 41 C2 0F 41  returns 0x01 (0000ms, 0569ms total)
T8F18 000:903 JLINK_SetResetType(JLINKARM_RESET_TYPE_NORMAL)  returns JLINKARM_RESET_TYPE_NORMAL (0000ms, 0569ms total)
T8F18 000:903 JLINK_Reset() -- CPU is running -- CPU_WriteMem(4 bytes @ 0xE000EDF0) -- CPU is running -- CPU_WriteMem(4 bytes @ 0xE000EDFC) >0x35 TIF> -- CPU is running -- CPU_WriteMem(4 bytes @ 0xE000ED0C) -- CPU is running -- CPU_ReadMem(4 bytes @ 0xE000EDF0) -- CPU is running -- CPU_ReadMem(4 bytes @ 0xE000EDF0) -- CPU is running -- CPU_WriteMem(4 bytes @ 0xE000EDF0) -- CPU is running -- CPU_WriteMem(4 bytes @ 0xE000EDFC) -- CPU is running -- CPU_ReadMem(4 bytes @ 0xE000EDF0)
 -- CPU_WriteMem(4 bytes @ 0xE0002000) -- CPU_ReadMem(4 bytes @ 0xE000EDFC) -- CPU_ReadMem(4 bytes @ 0xE0001000) (0018ms, 0587ms total)
T8F18 000:921 JLINK_ReadReg(R15 (PC))  returns 0x08008630 (0000ms, 0587ms total)
T8F18 000:921 JLINK_ReadReg(XPSR)  returns 0x01000000 (0000ms, 0587ms total)
T8F18 000:921 JLINK_Halt()  returns 0x00 (0000ms, 0587ms total)
T8F18 000:921 JLINK_IsHalted()  returns TRUE (0000ms, 0587ms total)
T8F18 000:921 JLINK_ReadMemU32(0xE000EDF0, 0x0001 Items, ...) -- CPU_ReadMem(4 bytes @ 0xE000EDF0) - Data: 03 00 03 00  returns 0x01 (0001ms, 0588ms total)
T8F18 000:922 JLINK_WriteU32(0xE000EDF0, 0xA05F0003) -- CPU_WriteMem(4 bytes @ 0xE000EDF0)  returns 0x00 (0001ms, 0589ms total)
T8F18 000:923 JLINK_WriteU32(0xE000EDFC, 0x01000000) -- CPU_WriteMem(4 bytes @ 0xE000EDFC)  returns 0x00 (0000ms, 0589ms total)
T8F18 000:924 JLINK_GetHWStatus(...)  returns 0x00 (0000ms, 0589ms total)
T8F18 000:926 JLINK_GetNumBPUnits(Type = 0xFFFFFF00)  returns 0x06 (0000ms, 0589ms total)
T8F18 000:926 JLINK_GetNumBPUnits(Type = 0xF0)  returns 0x2000 (0001ms, 0590ms total)
T8F18 000:927 JLINK_GetNumWPUnits()  returns 0x04 (0000ms, 0590ms total)
T8F18 000:928 JLINK_GetSpeed()  returns 0xFA0 (0000ms, 0590ms total)
T8F18 000:928 JLINK_ReadMemU32(0xE000E004, 0x0001 Items, ...) -- CPU_ReadMem(4 bytes @ 0xE000E004) - Data: 02 00 00 00  returns 0x01 (0001ms, 0591ms total)
T8F18 000:929 JLINK_ReadMemU32(0xE000E004, 0x0001 Items, ...) -- CPU_ReadMem(4 bytes @ 0xE000E004) - Data: 02 00 00 00  returns 0x01 (0001ms, 0592ms total)
T8F18 000:930 JLINK_WriteMem(0xE0001000, 0x001C Bytes, ...) - Data: 01 00 00 00 00 00 00 00 00 00 00 00 00 00 00 00 ... -- CPU_WriteMem(28 bytes @ 0xE0001000)  returns 0x1C (0000ms, 0592ms total)
T8F18 000:930 JLINK_ReadMem (0xE0001000, 0x001C Bytes, ...) -- CPU_ReadMem(28 bytes @ 0xE0001000) - Data: 01 00 00 40 00 00 00 00 00 00 00 00 00 00 00 00 ...  returns 0x00 (0001ms, 0593ms total)
T8F18 000:931 JLINK_ReadReg(R15 (PC))  returns 0x08008630 (0000ms, 0593ms total)
T8F18 000:931 JLINK_ReadReg(XPSR)  returns 0x01000000 (0000ms, 0593ms total)
T8F18 000:931 JLINK_WriteU32(0xE0041FB0, 0xC5ACCE55) -- CPU_WriteMem(4 bytes @ 0xE0041FB0)  returns 0x00 (0001ms, 0594ms total)
T8F18 000:932 JLINK_ReadMemU32(0xE0041000, 0x0001 Items, ...) -- CPU_ReadMem(4 bytes @ 0xE0041000) - Data: 01 00 00 00  returns 0x01 (0000ms, 0594ms total)
T8F18 000:932 JLINK_WriteU32(0xE0041000, 0x00000000) -- CPU_WriteMem(4 bytes @ 0xE0041000)  returns 0x00 (0001ms, 0595ms total)
T8F18 000:944 JLINK_SWO_Control(JLINKARM_SWO_CMD_GET_SPEED_INFO, ...)  returns 0x00 (0000ms, 0595ms total)
T8F18 000:944 JLINK_SWO_Control(JLINKARM_SWO_CMD_STOP, ...)  returns 0x00 (0000ms, 0595ms total)
T8F18 000:944 JLINK_SWO_Control(JLINKARM_SWO_CMD_START, ...) -- UART -- 4421052bps -- CPU_ReadMem(4 bytes @ 0xE0042004)  returns 0x00 (0001ms, 0596ms total)
T8F18 000:945 JLINK_WriteU32(0xE0040004, 0x00000001) -- CPU_WriteMem(4 bytes @ 0xE0040004)  returns 0x00 (0001ms, 0597ms total)
T8F18 000:946 JLINK_WriteU32(0xE0040010, 0x00000025) -- CPU_WriteMem(4 bytes @ 0xE0040010)  returns 0x00 (0000ms, 0597ms total)
T8F18 000:946 JLINK_WriteU32(0xE00400F0, 0x00000002) -- CPU_WriteMem(4 bytes @ 0xE00400F0)  returns 0x00 (0001ms, 0598ms total)
T8F18 000:947 JLINK_WriteU32(0xE0040304, 0x00000000) -- CPU_WriteMem(4 bytes @ 0xE0040304)  returns 0x00 (0000ms, 0598ms total)
T8F18 000:947 JLINK_WriteU32(0xE0000FB0, 0xC5ACCE55) -- CPU_WriteMem(4 bytes @ 0xE0000FB0)  returns 0x00 (0001ms, 0599ms total)
T8F18 000:948 JLINK_WriteU32(0xE0000E80, 0x0001000D) -- CPU_WriteMem(4 bytes @ 0xE0000E80)  returns 0x00 (0000ms, 0599ms total)
T8F18 000:948 JLINK_WriteU32(0xE0000E00, 0xFFFFFFFF) -- CPU_WriteMem(4 bytes @ 0xE0000E00)  returns 0x00 (0001ms, 0600ms total)
T8F18 000:949 JLINK_WriteU32(0xE0000E40, 0x00000008) -- CPU_WriteMem(4 bytes @ 0xE0000E40)  returns 0x00 (0001ms, 0601ms total)
T8F18 000:950 JLINK_WriteU32(0xE0001000, 0x00010A1F) -- CPU_WriteMem(4 bytes @ 0xE0001000)  returns 0x00 (0000ms, 0601ms total)
T8F18 001:020 JLINK_ReadMem (0x08000000, 0x1000 Bytes, ...) -- CPU_ReadMem(4096 bytes @ 0x08000000) -- Updating C cache (4096 bytes @ 0x08000000) -- Read from C cache (4096 bytes @ 0x08000000) - Data: 70 1B 00 20 31 86 00 08 ED 56 00 08 EF 56 00 08 ...  returns 0x00 (0043ms, 0644ms total)
T8F18 001:065 JLINK_ReadMem (0x08001000, 0x1000 Bytes, ...) -- CPU_ReadMem(4096 bytes @ 0x08001000) -- Updating C cache (4096 bytes @ 0x08001000) -- Read from C cache (4096 bytes @ 0x08001000) - Data: A1 F5 80 60 0B F0 79 FB 41 EC 1C 0B 9F ED 83 0B ...  returns 0x00 (0043ms, 0687ms total)
T8F18 001:108 JLINK_ReadMem (0x08002000, 0x1000 Bytes, ...) -- CPU_ReadMem(4096 bytes @ 0x08002000) -- Updating C cache (4096 bytes @ 0x08002000) -- Read from C cache (4096 bytes @ 0x08002000) - Data: 94 03 00 20 90 03 00 20 A0 06 00 20 70 47 70 B5 ...  returns 0x00 (0043ms, 0730ms total)
T8F18 001:152 JLINK_ReadMem (0x08003000, 0x1000 Bytes, ...) -- CPU_ReadMem(4096 bytes @ 0x08003000) -- Updating C cache (4096 bytes @ 0x08003000) -- Read from C cache (4096 bytes @ 0x08003000) - Data: 48 61 40 42 08 61 3C E0 50 20 78 49 48 61 40 42 ...  returns 0x00 (0042ms, 0772ms total)
T8F18 001:195 JLINK_ReadMem (0x08004000, 0x1000 Bytes, ...) -- CPU_ReadMem(4096 bytes @ 0x08004000) -- Updating C cache (4096 bytes @ 0x08004000) -- Read from C cache (4096 bytes @ 0x08004000) - Data: 06 00 00 20 AD F8 08 00 4F F4 FA 60 03 90 02 20 ...  returns 0x00 (0042ms, 0814ms total)
T8F18 001:238 JLINK_ReadMem (0x08005000, 0x1000 Bytes, ...) -- CPU_ReadMem(4096 bytes @ 0x08005000) -- Updating C cache (4096 bytes @ 0x08005000) -- Read from C cache (4096 bytes @ 0x08005000) - Data: 3F 00 0F A8 00 F0 A7 FC 10 A8 03 F0 B4 F9 10 94 ...  returns 0x00 (0042ms, 0856ms total)
T8F18 001:282 JLINK_ReadMem (0x08006000, 0x1000 Bytes, ...) -- CPU_ReadMem(4096 bytes @ 0x08006000) -- Updating C cache (4096 bytes @ 0x08006000) -- Read from C cache (4096 bytes @ 0x08006000) - Data: DB 68 1C 0C 54 74 00 F5 D8 73 03 EB 01 13 DB 68 ...  returns 0x00 (0042ms, 0898ms total)
T8F18 001:325 JLINK_ReadMem (0x08007000, 0x1000 Bytes, ...) -- CPU_ReadMem(4096 bytes @ 0x08007000) -- Updating C cache (4096 bytes @ 0x08007000) -- Read from C cache (4096 bytes @ 0x08007000) - Data: 2C 33 1A 60 06 E0 2B 4A 2C 32 12 68 82 43 29 4B ...  returns 0x00 (0043ms, 0941ms total)
T8F18 001:369 JLINK_ReadMem (0x08008000, 0x1000 Bytes, ...) -- CPU_ReadMem(4096 bytes @ 0x08008000) -- Updating C cache (4096 bytes @ 0x08008000) -- Read from C cache (4096 bytes @ 0x08008000) - Data: 70 47 30 B5 02 46 00 20 00 23 00 24 15 8A 05 EA ...  returns 0x00 (0043ms, 0984ms total)
T8F18 001:412 JLINK_ReadMem (0x08009000, 0x1000 Bytes, ...) -- CPU_ReadMem(4096 bytes @ 0x08009000) -- Updating C cache (4096 bytes @ 0x08009000) -- Read from C cache (4096 bytes @ 0x08009000) - Data: 1B 0B B0 EE 4B 0A 13 E0 00 50 01 40 00 14 02 40 ...  returns 0x00 (0043ms, 1027ms total)
T8F18 001:456 JLINK_ReadMem (0x0800A000, 0x1000 Bytes, ...) -- CPU_ReadMem(4096 bytes @ 0x0800A000) -- Updating C cache (4096 bytes @ 0x0800A000) -- Read from C cache (4096 bytes @ 0x0800A000) - Data: F0 EE 40 0A B7 EE 00 1A B0 EE 41 0A F5 EE C0 0A ...  returns 0x00 (0043ms, 1070ms total)
T8F18 001:500 JLINK_ReadMem (0x0800B000, 0x1000 Bytes, ...) -- CPU_ReadMem(4096 bytes @ 0x0800B000) -- Updating C cache (4096 bytes @ 0x0800B000) -- Read from C cache (4096 bytes @ 0x0800B000) - Data: 9D ED 00 0B 51 EC 18 0B 53 EC 10 2B 01 F0 A0 FB ...  returns 0x00 (0043ms, 1113ms total)
T8F18 001:543 JLINK_ReadMem (0x0800C000, 0x1000 Bytes, ...) -- CPU_ReadMem(4096 bytes @ 0x0800C000) -- Updating C cache (4096 bytes @ 0x0800C000) -- Read from C cache (4096 bytes @ 0x0800C000) - Data: 51 EC 10 0B 00 F0 A4 FB 41 EC 19 0B 2C 48 B0 EE ...  returns 0x00 (0042ms, 1155ms total)
T8F18 001:586 JLINK_ReadMem (0x0800D000, 0x0B58 Bytes, ...) -- CPU_ReadMem(2944 bytes @ 0x0800D000) -- Updating C cache (2944 bytes @ 0x0800D000) -- Read from C cache (2904 bytes @ 0x0800D000) - Data: 90 01 01 00 02 00 90 01 01 00 03 00 C8 00 01 00 ...  returns 0x00 (0030ms, 1185ms total)
T8F18 001:669 JLINK_SetResetType(JLINKARM_RESET_TYPE_NORMAL)  returns JLINKARM_RESET_TYPE_NORMAL (0000ms, 1185ms total)
T8F18 001:670 JLINK_Reset() -- CPU_WriteMem(4 bytes @ 0xE000EDF0) -- CPU_WriteMem(4 bytes @ 0xE000EDFC) >0x35 TIF> -- CPU_WriteMem(4 bytes @ 0xE000ED0C) -- CPU_ReadMem(4 bytes @ 0xE000EDF0) -- CPU_ReadMem(4 bytes @ 0xE000EDF0) -- CPU_WriteMem(4 bytes @ 0xE000EDF0) -- CPU_WriteMem(4 bytes @ 0xE000EDFC) -- CPU is running -- CPU_ReadMem(4 bytes @ 0xE000EDF0) -- CPU_WriteMem(4 bytes @ 0xE0002000) -- CPU_ReadMem(4 bytes @ 0xE000EDFC) -- CPU_ReadMem(4 bytes @ 0xE0001000) (0018ms, 1204ms total)
T8F18 001:688 JLINK_WriteU32(0xE000EDFC, 0x01000000) -- CPU_WriteMem(4 bytes @ 0xE000EDFC)  returns 0x00 (0001ms, 1205ms total)
T8F18 001:689 JLINK_ReadReg(R15 (PC))  returns 0x08008630 (0000ms, 1205ms total)
T8F18 001:689 JLINK_ReadReg(XPSR)  returns 0x01000000 (0000ms, 1205ms total)
T8F18 001:695 JLINK_ReadMem (0x08008630, 0x003C Bytes, ...) -- CPU_ReadMem(128 bytes @ 0x08008600) -- Updating C cache (128 bytes @ 0x08008600) -- Read from C cache (60 bytes @ 0x08008630) - Data: 09 48 80 47 09 48 00 47 FE E7 FE E7 FE E7 FE E7 ...  returns 0x00 (0002ms, 1207ms total)
T8F18 001:983 JLINK_WriteU32(0xE0001008, 0x00000000) -- CPU_WriteMem(4 bytes @ 0xE0001008)  returns 0x00 (0000ms, 1207ms total)
T8F18 001:983 JLINK_WriteU32(0xE000100C, 0x00000000) -- CPU_WriteMem(4 bytes @ 0xE000100C)  returns 0x00 (0001ms, 1208ms total)
T8F18 001:984 JLINK_WriteU32(0xE0001010, 0x00000000) -- CPU_WriteMem(4 bytes @ 0xE0001010)  returns 0x00 (0000ms, 1208ms total)
T8F18 001:985 JLINK_WriteU32(0xE0001014, 0x00000000) -- CPU_WriteMem(4 bytes @ 0xE0001014)  returns 0x00 (0000ms, 1209ms total)
T8F18 001:985 JLINK_WriteU32(0xE0001018, 0x00000000) -- CPU_WriteMem(4 bytes @ 0xE0001018)  returns 0x00 (0001ms, 1210ms total)
T8F18 002:060 JLINK_ReadMem (0x40026000, 0x00CC Bytes, ...) -- CPU_ReadMem(204 bytes @ 0x40026000) - Data: 00 00 00 00 00 00 00 00 00 00 00 00 00 00 00 00 ...  returns 0x00 (0003ms, 1213ms total)
T8F18 002:063 JLINK_ReadMem (0x400260CC, 0x0004 Bytes, ...) -- CPU_ReadMem(4 bytes @ 0x400260CC) - Data: 00 00 00 00  returns 0x00 (0001ms, 1214ms total)
T8F18 002:150 JLINK_ReadMem (0x40000800, 0x0010 Bytes, ...) -- CPU_ReadMem(16 bytes @ 0x40000800) - Data: 00 00 00 00 00 00 00 00 00 00 00 00 00 00 00 00  returns 0x00 (0001ms, 1215ms total)
T8F18 002:151 JLINK_ReadMem (0x40000810, 0x0004 Bytes, ...) -- CPU_ReadMem(4 bytes @ 0x40000810) - Data: 00 00 00 00  returns 0x00 (0000ms, 1215ms total)
T8F18 002:151 JLINK_ReadMem (0x40000818, 0x0014 Bytes, ...) -- CPU_ReadMem(20 bytes @ 0x40000818) - Data: 00 00 00 00 00 00 00 00 00 00 00 00 00 00 00 00 ...  returns 0x00 (0001ms, 1216ms total)
T8F18 002:152 JLINK_ReadMem (0x4000082C, 0x0004 Bytes, ...) -- CPU_ReadMem(4 bytes @ 0x4000082C) - Data: 00 00 00 00  returns 0x00 (0000ms, 1216ms total)
T8F18 002:152 JLINK_ReadMem (0x40000834, 0x000C Bytes, ...) -- CPU_ReadMem(12 bytes @ 0x40000834) - Data: 00 00 00 00 00 00 00 00 00 00 00 00  returns 0x00 (0001ms, 1217ms total)
T8F18 002:153 JLINK_ReadMem (0x40000840, 0x0004 Bytes, ...) -- CPU_ReadMem(4 bytes @ 0x40000840) - Data: 00 00 00 00  returns 0x00 (0001ms, 1218ms total)
T8F18 002:154 JLINK_ReadMem (0x40000848, 0x0004 Bytes, ...) -- CPU_ReadMem(4 bytes @ 0x40000848) - Data: 00 00 00 00  returns 0x00 (0000ms, 1218ms total)
T8F18 002:154 JLINK_ReadMem (0x4000084C, 0x0004 Bytes, ...) -- CPU_ReadMem(4 bytes @ 0x4000084C) - Data: 00 00 00 00  returns 0x00 (0001ms, 1219ms total)
T8F18 002:234 JLINK_ReadMem (0x40000C00, 0x0010 Bytes, ...) -- CPU_ReadMem(16 bytes @ 0x40000C00) - Data: 00 00 00 00 00 00 00 00 00 00 00 00 00 00 00 00  returns 0x00 (0000ms, 1219ms total)
T8F18 002:234 JLINK_ReadMem (0x40000C10, 0x0004 Bytes, ...) -- CPU_ReadMem(4 bytes @ 0x40000C10) - Data: 00 00 00 00  returns 0x00 (0001ms, 1220ms total)
T8F18 002:235 JLINK_ReadMem (0x40000C18, 0x0014 Bytes, ...) -- CPU_ReadMem(20 bytes @ 0x40000C18) - Data: 00 00 00 00 00 00 00 00 00 00 00 00 00 00 00 00 ...  returns 0x00 (0001ms, 1221ms total)
T8F18 002:236 JLINK_ReadMem (0x40000C2C, 0x0004 Bytes, ...) -- CPU_ReadMem(4 bytes @ 0x40000C2C) - Data: 00 00 00 00  returns 0x00 (0000ms, 1221ms total)
T8F18 002:236 JLINK_ReadMem (0x40000C34, 0x000C Bytes, ...) -- CPU_ReadMem(12 bytes @ 0x40000C34) - Data: 00 00 00 00 00 00 00 00 00 00 00 00  returns 0x00 (0001ms, 1222ms total)
T8F18 002:237 JLINK_ReadMem (0x40000C40, 0x0004 Bytes, ...) -- CPU_ReadMem(4 bytes @ 0x40000C40) - Data: 00 00 00 00  returns 0x00 (0000ms, 1222ms total)
T8F18 002:237 JLINK_ReadMem (0x40000C48, 0x0008 Bytes, ...) -- CPU_ReadMem(8 bytes @ 0x40000C48) - Data: 00 00 00 00 00 00 00 00  returns 0x00 (0001ms, 1223ms total)
T8F18 002:238 JLINK_ReadMem (0x40000C50, 0x0004 Bytes, ...) -- CPU_ReadMem(4 bytes @ 0x40000C50) - Data: 00 00 00 00  returns 0x00 (0000ms, 1223ms total)
T8F18 006:940 JLINK_ReadMem (0x20000478, 0x0004 Bytes, ...) -- CPU_ReadMem(64 bytes @ 0x20000440) -- Updating C cache (64 bytes @ 0x20000440) -- Read from C cache (4 bytes @ 0x20000478) - Data: 00 00 00 00  returns 0x00 (0001ms, 1224ms total)
T8F18 006:974 JLINK_ReadMem (0x20000004, 0x0001 Bytes, ...) -- CPU_ReadMem(64 bytes @ 0x20000000) -- Updating C cache (64 bytes @ 0x20000000) -- Read from C cache (1 bytes @ 0x20000004) - Data: 00  returns 0x00 (0001ms, 1225ms total)
T8F18 007:003 JLINK_ReadMem (0x20000690, 0x0004 Bytes, ...) -- CPU_ReadMem(64 bytes @ 0x20000680) -- Updating C cache (64 bytes @ 0x20000680) -- Read from C cache (4 bytes @ 0x20000690) - Data: 2D 6F 8C BC  returns 0x00 (0001ms, 1226ms total)
T8F18 007:177 JLINK_ReadMem (0x20000460, 0x0004 Bytes, ...) -- Read from C cache (4 bytes @ 0x20000460) - Data: 00 00 00 00  returns 0x00 (0000ms, 1226ms total)
T8F18 007:195 JLINK_ReadMem (0x2000034F, 0x0001 Bytes, ...) -- CPU_ReadMem(64 bytes @ 0x20000340) -- Updating C cache (64 bytes @ 0x20000340) -- Read from C cache (1 bytes @ 0x2000034F) - Data: 00  returns 0x00 (0001ms, 1227ms total)
T8F18 007:213 JLINK_ReadMem (0x40000C34, 0x0004 Bytes, ...) -- CPU_ReadMem(4 bytes @ 0x40000C34) - Data: 00 00 00 00  returns 0x00 (0000ms, 1227ms total)
T8F18 007:214 JLINK_ReadMem (0x40000C34, 0x0004 Bytes, ...) -- CPU_ReadMem(4 bytes @ 0x40000C34) - Data: 00 00 00 00  returns 0x00 (0000ms, 1227ms total)
T8F18 007:214 JLINK_ReadMem (0x40000C34, 0x0004 Bytes, ...) -- CPU_ReadMem(4 bytes @ 0x40000C34) - Data: 00 00 00 00  returns 0x00 (0001ms, 1228ms total)
T8F18 007:233 JLINK_ReadMem (0x40000C34, 0x0004 Bytes, ...) -- CPU_ReadMem(4 bytes @ 0x40000C34) - Data: 00 00 00 00  returns 0x00 (0001ms, 1229ms total)
T8F18 007:234 JLINK_ReadMem (0x40000C34, 0x0004 Bytes, ...) -- CPU_ReadMem(4 bytes @ 0x40000C34) - Data: 00 00 00 00  returns 0x00 (0001ms, 1230ms total)
T8F18 007:235 JLINK_ReadMem (0x40000C34, 0x0004 Bytes, ...) -- CPU_ReadMem(4 bytes @ 0x40000C34) - Data: 00 00 00 00  returns 0x00 (0000ms, 1230ms total)
T8F18 007:407 JLINK_ReadMem (0x2000016E, 0x0001 Bytes, ...) -- CPU_ReadMem(64 bytes @ 0x20000140) -- Updating C cache (64 bytes @ 0x20000140) -- Read from C cache (1 bytes @ 0x2000016E) - Data: 00  returns 0x00 (0001ms, 1231ms total)
T8F18 007:485 JLINK_ReadMem (0x20000170, 0x0002 Bytes, ...) -- Read from C cache (2 bytes @ 0x20000170) - Data: 00 00  returns 0x00 (0000ms, 1231ms total)
T8F18 007:511 JLINK_ReadMem (0x2000016F, 0x0001 Bytes, ...) -- Read from C cache (1 bytes @ 0x2000016F) - Data: 00  returns 0x00 (0000ms, 1231ms total)
T8F18 007:541 JLINK_ReadMem (0x20000410, 0x0001 Bytes, ...) -- CPU_ReadMem(64 bytes @ 0x20000400) -- Updating C cache (64 bytes @ 0x20000400) -- Read from C cache (1 bytes @ 0x20000410) - Data: 00  returns 0x00 (0001ms, 1232ms total)
T8F18 007:668 JLINK_ReadMem (0x20000390, 0x0002 Bytes, ...) -- CPU_ReadMem(64 bytes @ 0x20000380) -- Updating C cache (64 bytes @ 0x20000380) -- Read from C cache (2 bytes @ 0x20000390) - Data: 00 00  returns 0x00 (0001ms, 1233ms total)
T8F18 007:695 JLINK_ReadMem (0x2000025E, 0x0002 Bytes, ...) -- CPU_ReadMem(64 bytes @ 0x20000240) -- Updating C cache (64 bytes @ 0x20000240) -- Read from C cache (2 bytes @ 0x2000025E) - Data: 00 00  returns 0x00 (0001ms, 1234ms total)
T8F18 007:699 JLINK_ReadMem (0x200003FA, 0x0001 Bytes, ...) -- CPU_ReadMem(64 bytes @ 0x200003C0) -- Updating C cache (64 bytes @ 0x200003C0) -- Read from C cache (1 bytes @ 0x200003FA) - Data: 00  returns 0x00 (0001ms, 1235ms total)
T8F18 007:719 JLINK_ReadMem (0x200013F9, 0x0007 Bytes, ...) -- CPU_ReadMem(64 bytes @ 0x200013C0) -- Updating C cache (64 bytes @ 0x200013C0) -- Read from C cache (7 bytes @ 0x200013F9) - Data: 00 00 00 00 00 00 00  returns 0x00 (0001ms, 1236ms total)
T8F18 007:720 JLINK_ReadMem (0x20001400, 0x0007 Bytes, ...) -- CPU_ReadMem(64 bytes @ 0x20001400) -- Updating C cache (64 bytes @ 0x20001400) -- Read from C cache (7 bytes @ 0x20001400) - Data: 00 00 00 00 00 00 00  returns 0x00 (0001ms, 1237ms total)
T8F18 007:726 JLINK_ReadMem (0x200006D8, 0x0001 Bytes, ...) -- CPU_ReadMem(64 bytes @ 0x200006C0) -- Updating C cache (64 bytes @ 0x200006C0) -- Read from C cache (1 bytes @ 0x200006D8) - Data: 00  returns 0x00 (0001ms, 1238ms total)
T8F18 007:751 JLINK_ReadMem (0x200006FE, 0x0005 Bytes, ...) -- CPU_ReadMem(64 bytes @ 0x20000700) -- Updating C cache (64 bytes @ 0x20000700) -- Read from C cache (5 bytes @ 0x200006FE) - Data: 00 00 00 00 00  returns 0x00 (0001ms, 1239ms total)
T8F18 007:774 JLINK_ReadMem (0x20001362, 0x0001 Bytes, ...) -- CPU_ReadMem(64 bytes @ 0x20001340) -- Updating C cache (64 bytes @ 0x20001340) -- Read from C cache (1 bytes @ 0x20001362) - Data: 00  returns 0x00 (0001ms, 1240ms total)
T8F18 007:793 JLINK_ReadMem (0x200010FE, 0x0020 Bytes, ...) -- CPU_ReadMem(128 bytes @ 0x200010C0) -- Updating C cache (128 bytes @ 0x200010C0) -- Read from C cache (32 bytes @ 0x200010FE) - Data: A5 0E 00 E2 62 02 02 C7 53 AB 00 95 6F 6A 40 C8 ...  returns 0x00 (0002ms, 1242ms total)
T8F18 007:805 JLINK_ReadMem (0x200006A2, 0x0002 Bytes, ...) -- Read from C cache (2 bytes @ 0x200006A2) - Data: 00 04  returns 0x00 (0000ms, 1242ms total)
T8F18 007:847 JLINK_ReadMem (0x200003A4, 0x0004 Bytes, ...) -- Read from C cache (4 bytes @ 0x200003A4) - Data: 00 00 C8 41  returns 0x00 (0000ms, 1242ms total)
T8F18 007:852 JLINK_ReadMem (0x20000005, 0x0001 Bytes, ...) -- Read from C cache (1 bytes @ 0x20000005) - Data: 00  returns 0x00 (0000ms, 1242ms total)
T91FC 007:977 JLINK_SetBPEx(Addr = 0x080002C4, Type = 0xFFFFFFF2)  returns 0x00000001 (0000ms, 1242ms total)
T91FC 007:977 JLINK_ReadMemU32(0xE0001004, 0x0001 Items, ...) -- CPU_ReadMem(4 bytes @ 0xE0001004) - Data: EB 74 00 00  returns 0x01 (0001ms, 1243ms total)
T91FC 007:978 JLINK_WriteU32(0xE0001004, 0x000003FF) -- CPU_WriteMem(4 bytes @ 0xE0001004)  returns 0x00 (0001ms, 1244ms total)
T91FC 007:979 JLINK_WriteU32(0xE0001000, 0x00410A1F) -- CPU_WriteMem(4 bytes @ 0xE0001000)  returns 0x00 (0000ms, 1244ms total)
T91FC 007:979 JLINK_WriteU32(0xE0000E80, 0x0001000F) -- CPU_WriteMem(4 bytes @ 0xE0000E80)  returns 0x00 (0001ms, 1245ms total)
T91FC 007:980 JLINK_SWO_Control(JLINKARM_SWO_CMD_GET_NUM_BYTES, ...)  returns 0x00 (0000ms, 1245ms total)
T91FC 007:980 JLINK_Go() -- CPU_WriteMem(4 bytes @ 0xE0002000) -- CPU_WriteMem(4 bytes @ 0xE0002008) -- CPU_WriteMem(4 bytes @ 0xE000200C) -- CPU_WriteMem(4 bytes @ 0xE0002010) -- CPU_WriteMem(4 bytes @ 0xE0002014) -- CPU_WriteMem(4 bytes @ 0xE0002018) -- CPU_WriteMem(4 bytes @ 0xE000201C) -- CPU_WriteMem(4 bytes @ 0xE0001004) (0005ms, 1250ms total)
T91FC 007:985 JLINK_WriteU32(0xE0001000, 0x00010A1F) -- CPU is running -- CPU_WriteMem(4 bytes @ 0xE0001000)  returns 0x00 (0000ms, 1250ms total)
T91FC 008:087 JLINK_SWO_Read(..., Offset = 0x00, NumBytes = 0x400000) - Data:  NumBytesRead = 0x00 (0000ms, 1250ms total)
T91FC 008:089 JLINK_SWO_Control(JLINKARM_SWO_CMD_FLUSH, ...)  returns 0x00 (0000ms, 1250ms total)
T91FC 008:089 JLINK_IsHalted()  returns TRUE (0003ms, 1253ms total)
T91FC 008:092 JLINK_Halt()  returns 0x00 (0000ms, 1250ms total)
T91FC 008:092 JLINK_IsHalted()  returns TRUE (0000ms, 1250ms total)
T91FC 008:092 JLINK_IsHalted()  returns TRUE (0000ms, 1250ms total)
T91FC 008:092 JLINK_IsHalted()  returns TRUE (0000ms, 1250ms total)
T91FC 008:092 JLINK_ReadReg(R15 (PC))  returns 0x080002C4 (0000ms, 1250ms total)
T91FC 008:092 JLINK_ReadReg(XPSR)  returns 0x61000000 (0000ms, 1250ms total)
T91FC 008:092 JLINK_SWO_Read(..., Offset = 0x00, NumBytes = 0x400000) - Data:  NumBytesRead = 0x00 (0000ms, 1250ms total)
T91FC 008:094 JLINK_SWO_Control(JLINKARM_SWO_CMD_FLUSH, ...)  returns 0x00 (0000ms, 1250ms total)
T91FC 008:094 JLINK_ClrBPEx(BPHandle = 0x00000001)  returns 0x00 (0000ms, 1250ms total)
T91FC 008:094 JLINK_ReadMemU32(0xE000ED30, 0x0001 Items, ...) -- CPU_ReadMem(4 bytes @ 0xE000ED30) - Data: 03 00 00 00  returns 0x01 (0000ms, 1250ms total)
T91FC 008:094 JLINK_ReadMemU32(0xE0001028, 0x0001 Items, ...) -- CPU_ReadMem(4 bytes @ 0xE0001028) - Data: 00 00 00 00  returns 0x01 (0001ms, 1251ms total)
T91FC 008:095 JLINK_ReadMemU32(0xE0001038, 0x0001 Items, ...) -- CPU_ReadMem(4 bytes @ 0xE0001038) - Data: 00 02 00 00  returns 0x01 (0000ms, 1251ms total)
T91FC 008:095 JLINK_ReadMemU32(0xE0001048, 0x0001 Items, ...) -- CPU_ReadMem(4 bytes @ 0xE0001048) - Data: 00 00 00 00  returns 0x01 (0001ms, 1252ms total)
T91FC 008:096 JLINK_ReadMemU32(0xE0001058, 0x0001 Items, ...) -- CPU_ReadMem(4 bytes @ 0xE0001058) - Data: 00 00 00 00  returns 0x01 (0000ms, 1252ms total)
T91FC 008:097 JLINK_ReadReg(R0)  returns 0x20001570 (0000ms, 1252ms total)
T91FC 008:097 JLINK_ReadReg(R1)  returns 0x20001770 (0000ms, 1252ms total)
T91FC 008:097 JLINK_ReadReg(R2)  returns 0x20001770 (0000ms, 1252ms total)
T91FC 008:097 JLINK_ReadReg(R3)  returns 0x20001770 (0000ms, 1252ms total)
T91FC 008:097 JLINK_ReadReg(R4)  returns 0x00000000 (0000ms, 1252ms total)
T91FC 008:097 JLINK_ReadReg(R5)  returns 0x20001510 (0000ms, 1252ms total)
T91FC 008:097 JLINK_ReadReg(R6)  returns 0x00000000 (0000ms, 1252ms total)
T91FC 008:097 JLINK_ReadReg(R7)  returns 0x00000000 (0000ms, 1252ms total)
T91FC 008:097 JLINK_ReadReg(R8)  returns 0x00000000 (0000ms, 1252ms total)
T91FC 008:097 JLINK_ReadReg(R9)  returns 0x00000000 (0000ms, 1252ms total)
T91FC 008:097 JLINK_ReadReg(R10)  returns 0x0800D9C8 (0000ms, 1252ms total)
T91FC 008:097 JLINK_ReadReg(R11)  returns 0x00000000 (0000ms, 1252ms total)
T91FC 008:097 JLINK_ReadReg(R12)  returns 0x20001550 (0000ms, 1252ms total)
T91FC 008:097 JLINK_ReadReg(R13 (SP))  returns 0x20001B70 (0000ms, 1252ms total)
T91FC 008:097 JLINK_ReadReg(R14)  returns 0x0800027F (0000ms, 1252ms total)
T91FC 008:097 JLINK_ReadReg(R15 (PC))  returns 0x080002C4 (0000ms, 1252ms total)
T91FC 008:097 JLINK_ReadReg(XPSR)  returns 0x61000000 (0001ms, 1253ms total)
T91FC 008:098 JLINK_ReadReg(MSP)  returns 0x20001B70 (0000ms, 1253ms total)
T91FC 008:098 JLINK_ReadReg(PSP)  returns 0x00000000 (0000ms, 1253ms total)
T91FC 008:098 JLINK_ReadReg(CFBP)  returns 0x04000000 (0000ms, 1253ms total)
T91FC 008:098 JLINK_ReadReg(FPSCR)  returns 0x03000000 (0005ms, 1258ms total)
T91FC 008:103 JLINK_ReadReg(FPS0)  returns 0x00000000 (0000ms, 1258ms total)
T91FC 008:103 JLINK_ReadReg(FPS1)  returns 0x00000000 (0000ms, 1258ms total)
T91FC 008:103 JLINK_ReadReg(FPS2)  returns 0x00000000 (0000ms, 1258ms total)
T91FC 008:103 JLINK_ReadReg(FPS3)  returns 0x00000000 (0000ms, 1258ms total)
T91FC 008:103 JLINK_ReadReg(FPS4)  returns 0x00000000 (0000ms, 1258ms total)
T91FC 008:103 JLINK_ReadReg(FPS5)  returns 0x00000000 (0000ms, 1258ms total)
T91FC 008:103 JLINK_ReadReg(FPS6)  returns 0x00000000 (0000ms, 1258ms total)
T91FC 008:103 JLINK_ReadReg(FPS7)  returns 0x00000000 (0000ms, 1258ms total)
T91FC 008:103 JLINK_ReadReg(FPS8)  returns 0x00000000 (0000ms, 1258ms total)
T91FC 008:103 JLINK_ReadReg(FPS9)  returns 0x00000000 (0000ms, 1258ms total)
T91FC 008:103 JLINK_ReadReg(FPS10)  returns 0x00000000 (0000ms, 1258ms total)
T91FC 008:103 JLINK_ReadReg(FPS11)  returns 0x00000000 (0000ms, 1258ms total)
T91FC 008:103 JLINK_ReadReg(FPS12)  returns 0x00000000 (0000ms, 1258ms total)
T91FC 008:103 JLINK_ReadReg(FPS13)  returns 0x00000000 (0000ms, 1258ms total)
T91FC 008:103 JLINK_ReadReg(FPS14)  returns 0x00000000 (0000ms, 1258ms total)
T91FC 008:103 JLINK_ReadReg(FPS15)  returns 0x00000000 (0000ms, 1258ms total)
T91FC 008:103 JLINK_ReadReg(FPS16)  returns 0x00000000 (0000ms, 1258ms total)
T91FC 008:103 JLINK_ReadReg(FPS17)  returns 0x00000000 (0000ms, 1258ms total)
T91FC 008:103 JLINK_ReadReg(FPS18)  returns 0x00000000 (0000ms, 1258ms total)
T91FC 008:103 JLINK_ReadReg(FPS19)  returns 0x00000000 (0000ms, 1258ms total)
T91FC 008:103 JLINK_ReadReg(FPS20)  returns 0x00000000 (0001ms, 1259ms total)
T91FC 008:104 JLINK_ReadReg(FPS21)  returns 0x00000000 (0000ms, 1259ms total)
T91FC 008:104 JLINK_ReadReg(FPS22)  returns 0x00000000 (0000ms, 1259ms total)
T91FC 008:104 JLINK_ReadReg(FPS23)  returns 0x00000000 (0000ms, 1259ms total)
T91FC 008:104 JLINK_ReadReg(FPS24)  returns 0x00000000 (0000ms, 1259ms total)
T91FC 008:104 JLINK_ReadReg(FPS25)  returns 0x00000000 (0000ms, 1259ms total)
T91FC 008:104 JLINK_ReadReg(FPS26)  returns 0x00000000 (0000ms, 1259ms total)
T91FC 008:104 JLINK_ReadReg(FPS27)  returns 0x00000000 (0000ms, 1259ms total)
T91FC 008:104 JLINK_ReadReg(FPS28)  returns 0x00000000 (0000ms, 1259ms total)
T91FC 008:104 JLINK_ReadReg(FPS29)  returns 0x00000000 (0000ms, 1259ms total)
T91FC 008:104 JLINK_ReadReg(FPS30)  returns 0x00000000 (0000ms, 1259ms total)
T91FC 008:104 JLINK_ReadReg(FPS31)  returns 0x00000000 (0000ms, 1259ms total)
T8F18 008:111 JLINK_ReadMem (0x20000478, 0x0004 Bytes, ...) -- CPU_ReadMem(64 bytes @ 0x20000440) -- Updating C cache (64 bytes @ 0x20000440) -- Read from C cache (4 bytes @ 0x20000478) - Data: 00 00 00 00  returns 0x00 (0001ms, 1260ms total)
T8F18 008:113 JLINK_ReadMem (0x20000004, 0x0001 Bytes, ...) -- CPU_ReadMem(64 bytes @ 0x20000000) -- Updating C cache (64 bytes @ 0x20000000) -- Read from C cache (1 bytes @ 0x20000004) - Data: 00  returns 0x00 (0001ms, 1261ms total)
T8F18 008:136 JLINK_ReadMem (0x20000690, 0x0004 Bytes, ...) -- CPU_ReadMem(64 bytes @ 0x20000680) -- Updating C cache (64 bytes @ 0x20000680) -- Read from C cache (4 bytes @ 0x20000690) - Data: 00 00 00 00  returns 0x00 (0002ms, 1263ms total)
T8F18 008:139 JLINK_ReadMem (0x20000460, 0x0004 Bytes, ...) -- Read from C cache (4 bytes @ 0x20000460) - Data: 00 00 00 00  returns 0x00 (0000ms, 1263ms total)
T8F18 008:139 JLINK_ReadMem (0x2000034F, 0x0001 Bytes, ...) -- CPU_ReadMem(64 bytes @ 0x20000340) -- Updating C cache (64 bytes @ 0x20000340) -- Read from C cache (1 bytes @ 0x2000034F) - Data: 00  returns 0x00 (0001ms, 1264ms total)
T8F18 008:140 JLINK_ReadMem (0x40000C34, 0x0004 Bytes, ...) -- CPU_ReadMem(4 bytes @ 0x40000C34) - Data: 00 00 00 00  returns 0x00 (0001ms, 1265ms total)
T8F18 008:141 JLINK_ReadMem (0x40000C34, 0x0004 Bytes, ...) -- CPU_ReadMem(4 bytes @ 0x40000C34) - Data: 00 00 00 00  returns 0x00 (0000ms, 1265ms total)
T8F18 008:142 JLINK_ReadMem (0x2000016E, 0x0001 Bytes, ...) -- CPU_ReadMem(64 bytes @ 0x20000140) -- Updating C cache (64 bytes @ 0x20000140) -- Read from C cache (1 bytes @ 0x2000016E) - Data: 00  returns 0x00 (0002ms, 1267ms total)
T8F18 008:144 JLINK_ReadMem (0x20000170, 0x0002 Bytes, ...) -- Read from C cache (2 bytes @ 0x20000170) - Data: 00 00  returns 0x00 (0000ms, 1267ms total)
T8F18 008:144 JLINK_ReadMem (0x2000016F, 0x0001 Bytes, ...) -- Read from C cache (1 bytes @ 0x2000016F) - Data: 00  returns 0x00 (0000ms, 1267ms total)
T8F18 008:144 JLINK_ReadMem (0x20000410, 0x0001 Bytes, ...) -- CPU_ReadMem(64 bytes @ 0x20000400) -- Updating C cache (64 bytes @ 0x20000400) -- Read from C cache (1 bytes @ 0x20000410) - Data: 00  returns 0x00 (0001ms, 1268ms total)
T8F18 008:164 JLINK_ReadMem (0x20000390, 0x0002 Bytes, ...) -- CPU_ReadMem(64 bytes @ 0x20000380) -- Updating C cache (64 bytes @ 0x20000380) -- Read from C cache (2 bytes @ 0x20000390) - Data: 00 00  returns 0x00 (0001ms, 1269ms total)
T8F18 008:165 JLINK_ReadMem (0x2000025E, 0x0002 Bytes, ...) -- CPU_ReadMem(64 bytes @ 0x20000240) -- Updating C cache (64 bytes @ 0x20000240) -- Read from C cache (2 bytes @ 0x2000025E) - Data: 00 00  returns 0x00 (0001ms, 1270ms total)
T8F18 008:166 JLINK_ReadMem (0x200003FA, 0x0001 Bytes, ...) -- CPU_ReadMem(64 bytes @ 0x200003C0) -- Updating C cache (64 bytes @ 0x200003C0) -- Read from C cache (1 bytes @ 0x200003FA) - Data: 00  returns 0x00 (0001ms, 1271ms total)
T8F18 008:168 JLINK_ReadMem (0x200013F9, 0x0007 Bytes, ...) -- CPU_ReadMem(64 bytes @ 0x200013C0) -- Updating C cache (64 bytes @ 0x200013C0) -- Read from C cache (7 bytes @ 0x200013F9) - Data: 00 00 00 00 00 00 00  returns 0x00 (0001ms, 1272ms total)
T8F18 008:169 JLINK_ReadMem (0x20001400, 0x0007 Bytes, ...) -- CPU_ReadMem(64 bytes @ 0x20001400) -- Updating C cache (64 bytes @ 0x20001400) -- Read from C cache (7 bytes @ 0x20001400) - Data: 00 00 00 00 00 00 00  returns 0x00 (0001ms, 1273ms total)
T8F18 008:170 JLINK_ReadMem (0x200006D8, 0x0001 Bytes, ...) -- CPU_ReadMem(64 bytes @ 0x200006C0) -- Updating C cache (64 bytes @ 0x200006C0) -- Read from C cache (1 bytes @ 0x200006D8) - Data: 00  returns 0x00 (0001ms, 1274ms total)
T8F18 008:171 JLINK_ReadMem (0x200006FE, 0x0005 Bytes, ...) -- CPU_ReadMem(64 bytes @ 0x20000700) -- Updating C cache (64 bytes @ 0x20000700) -- Read from C cache (5 bytes @ 0x200006FE) - Data: 00 00 00 00 00  returns 0x00 (0001ms, 1275ms total)
T8F18 008:173 JLINK_ReadMem (0x20001362, 0x0001 Bytes, ...) -- CPU_ReadMem(64 bytes @ 0x20001340) -- Updating C cache (64 bytes @ 0x20001340) -- Read from C cache (1 bytes @ 0x20001362) - Data: 00  returns 0x00 (0001ms, 1276ms total)
T8F18 008:174 JLINK_ReadMem (0x200010FE, 0x0020 Bytes, ...) -- CPU_ReadMem(128 bytes @ 0x200010C0) -- Updating C cache (128 bytes @ 0x200010C0) -- Read from C cache (32 bytes @ 0x200010FE) - Data: 00 00 00 00 00 00 00 00 00 00 00 00 00 00 00 00 ...  returns 0x00 (0002ms, 1278ms total)
T8F18 008:176 JLINK_ReadMem (0x200006A2, 0x0002 Bytes, ...) -- Read from C cache (2 bytes @ 0x200006A2) - Data: 00 04  returns 0x00 (0000ms, 1278ms total)
T8F18 008:176 JLINK_ReadMem (0x200003A4, 0x0004 Bytes, ...) -- Read from C cache (4 bytes @ 0x200003A4) - Data: 00 00 C8 41  returns 0x00 (0000ms, 1278ms total)
T8F18 008:176 JLINK_ReadMem (0x20000005, 0x0001 Bytes, ...) -- Read from C cache (1 bytes @ 0x20000005) - Data: 00  returns 0x00 (0000ms, 1278ms total)
T8F18 008:176 JLINK_ReadMem (0x40000C00, 0x0010 Bytes, ...) -- CPU_ReadMem(16 bytes @ 0x40000C00) - Data: 00 00 00 00 00 00 00 00 00 00 00 00 00 00 00 00  returns 0x00 (0001ms, 1279ms total)
T8F18 008:177 JLINK_ReadMem (0x40000C10, 0x0004 Bytes, ...) -- CPU_ReadMem(4 bytes @ 0x40000C10) - Data: 00 00 00 00  returns 0x00 (0000ms, 1279ms total)
T8F18 008:177 JLINK_ReadMem (0x40000C18, 0x0014 Bytes, ...) -- CPU_ReadMem(20 bytes @ 0x40000C18) - Data: 00 00 00 00 00 00 00 00 00 00 00 00 00 00 00 00 ...  returns 0x00 (0001ms, 1280ms total)
T8F18 008:178 JLINK_ReadMem (0x40000C2C, 0x0004 Bytes, ...) -- CPU_ReadMem(4 bytes @ 0x40000C2C) - Data: 00 00 00 00  returns 0x00 (0001ms, 1281ms total)
T8F18 008:179 JLINK_ReadMem (0x40000C34, 0x000C Bytes, ...) -- CPU_ReadMem(12 bytes @ 0x40000C34) - Data: 00 00 00 00 00 00 00 00 00 00 00 00  returns 0x00 (0000ms, 1281ms total)
T8F18 008:179 JLINK_ReadMem (0x40000C40, 0x0004 Bytes, ...) -- CPU_ReadMem(4 bytes @ 0x40000C40) - Data: 00 00 00 00  returns 0x00 (0001ms, 1282ms total)
T8F18 008:180 JLINK_ReadMem (0x40000C48, 0x0008 Bytes, ...) -- CPU_ReadMem(8 bytes @ 0x40000C48) - Data: 00 00 00 00 00 00 00 00  returns 0x00 (0001ms, 1283ms total)
T8F18 008:181 JLINK_ReadMem (0x40000C50, 0x0004 Bytes, ...) -- CPU_ReadMem(4 bytes @ 0x40000C50) - Data: 00 00 00 00  returns 0x00 (0000ms, 1283ms total)
T8F18 008:196 JLINK_ReadMem (0x40000800, 0x0010 Bytes, ...) -- CPU_ReadMem(16 bytes @ 0x40000800) - Data: 00 00 00 00 00 00 00 00 00 00 00 00 00 00 00 00  returns 0x00 (0001ms, 1284ms total)
T8F18 008:197 JLINK_ReadMem (0x40000810, 0x0004 Bytes, ...) -- CPU_ReadMem(4 bytes @ 0x40000810) - Data: 00 00 00 00  returns 0x00 (0000ms, 1284ms total)
T8F18 008:197 JLINK_ReadMem (0x40000818, 0x0014 Bytes, ...) -- CPU_ReadMem(20 bytes @ 0x40000818) - Data: 00 00 00 00 00 00 00 00 00 00 00 00 00 00 00 00 ...  returns 0x00 (0001ms, 1285ms total)
T8F18 008:198 JLINK_ReadMem (0x4000082C, 0x0004 Bytes, ...) -- CPU_ReadMem(4 bytes @ 0x4000082C) - Data: 00 00 00 00  returns 0x00 (0000ms, 1285ms total)
T8F18 008:198 JLINK_ReadMem (0x40000834, 0x000C Bytes, ...) -- CPU_ReadMem(12 bytes @ 0x40000834) - Data: 00 00 00 00 00 00 00 00 00 00 00 00  returns 0x00 (0001ms, 1286ms total)
T8F18 008:199 JLINK_ReadMem (0x40000840, 0x0004 Bytes, ...) -- CPU_ReadMem(4 bytes @ 0x40000840) - Data: 00 00 00 00  returns 0x00 (0000ms, 1286ms total)
T8F18 008:199 JLINK_ReadMem (0x40000848, 0x0004 Bytes, ...) -- CPU_ReadMem(4 bytes @ 0x40000848) - Data: 00 00 00 00  returns 0x00 (0001ms, 1287ms total)
T8F18 008:200 JLINK_ReadMem (0x4000084C, 0x0004 Bytes, ...) -- CPU_ReadMem(4 bytes @ 0x4000084C) - Data: 00 00 00 00  returns 0x00 (0000ms, 1287ms total)
T8F18 008:202 JLINK_ReadMem (0x40026000, 0x00CC Bytes, ...) -- CPU_ReadMem(204 bytes @ 0x40026000) - Data: 00 00 00 00 00 00 00 00 00 00 00 00 00 00 00 00 ...  returns 0x00 (0002ms, 1289ms total)
T8F18 008:205 JLINK_ReadMem (0x400260CC, 0x0004 Bytes, ...) -- CPU_ReadMem(4 bytes @ 0x400260CC) - Data: 00 00 00 00  returns 0x00 (0000ms, 1289ms total)
T8F18 008:227 JLINK_ReadMem (0x080002C4, 0x003C Bytes, ...) -- CPU_ReadMem(64 bytes @ 0x080002C0) -- Updating C cache (64 bytes @ 0x080002C0) -- Read from C cache (60 bytes @ 0x080002C4) - Data: 4F F4 A0 60 05 F0 40 FB 03 F0 1E FB 00 24 33 E0 ...  returns 0x00 (0001ms, 1290ms total)
T8F18 008:274 JLINK_ReadMem (0x08000356, 0x0002 Bytes, ...) -- CPU_ReadMem(64 bytes @ 0x08000340) -- Updating C cache (64 bytes @ 0x08000340) -- Read from C cache (2 bytes @ 0x08000356) - Data: 0B 48  returns 0x00 (0001ms, 1291ms total)
T8F18 008:275 JLINK_ReadMem (0x08000358, 0x003C Bytes, ...) -- CPU_ReadMem(64 bytes @ 0x08000380) -- Updating C cache (64 bytes @ 0x08000380) -- Read from C cache (60 bytes @ 0x08000358) - Data: 00 68 4F F4 7A 71 B0 FB F1 F2 01 FB 12 00 10 B9 ...  returns 0x00 (0002ms, 1293ms total)
T91FC 014:416 JLINK_ReadMemU32(0xE0001004, 0x0001 Items, ...) -- CPU_ReadMem(4 bytes @ 0xE0001004) - Data: F2 6F 00 00  returns 0x01 (0001ms, 1294ms total)
T91FC 014:417 JLINK_WriteU32(0xE0001004, 0x000003FF) -- CPU_WriteMem(4 bytes @ 0xE0001004)  returns 0x00 (0001ms, 1295ms total)
T91FC 014:418 JLINK_WriteU32(0xE0001000, 0x00410A1F)  returns 0x00 (0000ms, 1295ms total)
T91FC 014:418 JLINK_WriteU32(0xE0000E80, 0x0001000F)  returns 0x00 (0000ms, 1295ms total)
T91FC 014:418 JLINK_SWO_Control(JLINKARM_SWO_CMD_GET_NUM_BYTES, ...)  returns 0x00 (0000ms, 1295ms total)
T91FC 014:418 JLINK_Go() -- CPU_WriteMem(4 bytes @ 0xE0000E80) -- CPU_WriteMem(4 bytes @ 0xE0001000) -- CPU_WriteMem(4 bytes @ 0xE0002008) (0002ms, 1297ms total)
T91FC 014:420 JLINK_WriteU32(0xE0001000, 0x00010A1F) -- CPU is running -- CPU_WriteMem(4 bytes @ 0xE0001000)  returns 0x00 (0001ms, 1298ms total)
T91FC 014:522 JLINK_SWO_Read(..., Offset = 0x00, NumBytes = 0x400000) - Data:  NumBytesRead = 0x00 (0000ms, 1298ms total)
T91FC 014:524 JLINK_SWO_Control(JLINKARM_SWO_CMD_FLUSH, ...)  returns 0x00 (0000ms, 1298ms total)
T91FC 014:524 JLINK_IsHalted()  returns FALSE (0000ms, 1298ms total)
T91FC 014:625 JLINK_SWO_Read(..., Offset = 0x00, NumBytes = 0x400000) - Data:  NumBytesRead = 0x00 (0000ms, 1298ms total)
T91FC 014:627 JLINK_SWO_Control(JLINKARM_SWO_CMD_FLUSH, ...)  returns 0x00 (0000ms, 1298ms total)
T91FC 014:627 JLINK_IsHalted()  returns FALSE (0000ms, 1298ms total)
T91FC 014:727 JLINK_SWO_Read(..., Offset = 0x00, NumBytes = 0x400000) - Data:  NumBytesRead = 0x00 (0000ms, 1298ms total)
T91FC 014:729 JLINK_SWO_Control(JLINKARM_SWO_CMD_FLUSH, ...)  returns 0x00 (0000ms, 1298ms total)
T91FC 014:729 JLINK_IsHalted()  returns FALSE (0000ms, 1298ms total)
T91FC 014:831 JLINK_SWO_Read(..., Offset = 0x00, NumBytes = 0x400000) - Data:  NumBytesRead = 0x00 (0000ms, 1298ms total)
T91FC 014:833 JLINK_SWO_Control(JLINKARM_SWO_CMD_FLUSH, ...)  returns 0x00 (0000ms, 1298ms total)
T91FC 014:833 JLINK_IsHalted()  returns FALSE (0000ms, 1298ms total)
T91FC 014:935 JLINK_SWO_Read(..., Offset = 0x00, NumBytes = 0x400000) - Data:  NumBytesRead = 0x00 (0000ms, 1298ms total)
T91FC 014:937 JLINK_SWO_Control(JLINKARM_SWO_CMD_FLUSH, ...)  returns 0x00 (0000ms, 1298ms total)
T91FC 014:937 JLINK_ReadMemU32(0xE0001004, 0x0001 Items, ...) -- CPU is running -- CPU_ReadMem(4 bytes @ 0xE0001004) - Data: 02 CA 2D 05  returns 0x01 (0000ms, 1298ms total)
T8F18 014:938 JLINK_ReadMem (0x20000478, 0x0004 Bytes, ...) -- CPU is running -- CPU_ReadMem(4 bytes @ 0x20000478) - Data: 00 00 00 00  returns 0x00 (0001ms, 1299ms total)
T8F18 014:939 JLINK_ReadMem (0x20000004, 0x0001 Bytes, ...) -- CPU is running -- CPU_ReadMem(1 bytes @ 0x20000004) - Data: 00  returns 0x00 (0001ms, 1300ms total)
T8F18 014:940 JLINK_ReadMem (0x20000690, 0x0004 Bytes, ...) -- CPU is running -- CPU_ReadMem(4 bytes @ 0x20000690) - Data: 2D 6F 0C BD  returns 0x00 (0000ms, 1300ms total)
T8F18 014:943 JLINK_ReadMem (0x20000460, 0x0004 Bytes, ...) -- CPU is running -- CPU_ReadMem(4 bytes @ 0x20000460) - Data: 00 00 00 00  returns 0x00 (0000ms, 1300ms total)
T8F18 014:943 JLINK_ReadMem (0x2000034F, 0x0001 Bytes, ...) -- CPU is running -- CPU_ReadMem(1 bytes @ 0x2000034F) - Data: 00  returns 0x00 (0001ms, 1301ms total)
T8F18 014:944 JLINK_ReadMem (0x40000C34, 0x0004 Bytes, ...) -- CPU is running -- CPU_ReadMem(4 bytes @ 0x40000C34) - Data: E8 03 00 00  returns 0x00 (0001ms, 1302ms total)
T8F18 014:945 JLINK_ReadMem (0x40000C34, 0x0004 Bytes, ...) -- CPU is running -- CPU_ReadMem(4 bytes @ 0x40000C34) - Data: E8 03 00 00  returns 0x00 (0001ms, 1303ms total)
T8F18 014:946 JLINK_ReadMem (0x20000460, 0x0004 Bytes, ...) -- CPU is running -- CPU_ReadMem(4 bytes @ 0x20000460) - Data: 00 00 00 00  returns 0x00 (0001ms, 1304ms total)
T8F18 014:947 JLINK_ReadMem (0x2000016E, 0x0001 Bytes, ...) -- CPU is running -- CPU_ReadMem(1 bytes @ 0x2000016E) - Data: 00  returns 0x00 (0001ms, 1305ms total)
T8F18 014:948 JLINK_ReadMem (0x20000170, 0x0002 Bytes, ...) -- CPU is running -- CPU_ReadMem(2 bytes @ 0x20000170) - Data: 00 00  returns 0x00 (0001ms, 1306ms total)
T8F18 014:949 JLINK_ReadMem (0x2000016F, 0x0001 Bytes, ...) -- CPU is running -- CPU_ReadMem(1 bytes @ 0x2000016F) - Data: 00  returns 0x00 (0000ms, 1306ms total)
T8F18 014:950 JLINK_ReadMem (0x20000410, 0x0001 Bytes, ...) -- CPU is running -- CPU_ReadMem(1 bytes @ 0x20000410) - Data: 00  returns 0x00 (0000ms, 1306ms total)
T8F18 014:950 JLINK_ReadMem (0x2000016E, 0x0001 Bytes, ...) -- CPU is running -- CPU_ReadMem(1 bytes @ 0x2000016E) - Data: 00  returns 0x00 (0001ms, 1307ms total)
T8F18 014:970 JLINK_ReadMem (0x20000390, 0x0002 Bytes, ...) -- CPU is running -- CPU_ReadMem(2 bytes @ 0x20000390) - Data: 00 00  returns 0x00 (0001ms, 1308ms total)
T8F18 014:971 JLINK_ReadMem (0x20000460, 0x0004 Bytes, ...) -- CPU is running -- CPU_ReadMem(4 bytes @ 0x20000460) - Data: 00 00 00 00  returns 0x00 (0001ms, 1309ms total)
T8F18 014:972 JLINK_ReadMem (0x2000025E, 0x0002 Bytes, ...) -- CPU is running -- CPU_ReadMem(2 bytes @ 0x2000025E) - Data: 00 00  returns 0x00 (0000ms, 1309ms total)
T8F18 014:972 JLINK_ReadMem (0x200003FA, 0x0001 Bytes, ...) -- CPU is running -- CPU_ReadMem(1 bytes @ 0x200003FA) - Data: 00  returns 0x00 (0001ms, 1310ms total)
T8F18 014:973 JLINK_ReadMem (0x200013F9, 0x0007 Bytes, ...) -- CPU is running -- CPU_ReadMem(7 bytes @ 0x200013F9) - Data: 00 00 00 00 00 00 00  returns 0x00 (0001ms, 1311ms total)
T8F18 014:974 JLINK_ReadMem (0x20001400, 0x0007 Bytes, ...) -- CPU is running -- CPU_ReadMem(7 bytes @ 0x20001400) - Data: 00 00 00 00 00 00 00  returns 0x00 (0001ms, 1312ms total)
T8F18 014:975 JLINK_ReadMem (0x200006D8, 0x0001 Bytes, ...) -- CPU is running -- CPU_ReadMem(1 bytes @ 0x200006D8) - Data: 00  returns 0x00 (0001ms, 1313ms total)
T8F18 014:976 JLINK_ReadMem (0x200006FE, 0x0005 Bytes, ...) -- CPU is running -- CPU_ReadMem(5 bytes @ 0x200006FE) - Data: 00 00 00 00 00  returns 0x00 (0001ms, 1314ms total)
T8F18 014:977 JLINK_ReadMem (0x20001362, 0x0001 Bytes, ...) -- CPU is running -- CPU_ReadMem(1 bytes @ 0x20001362) - Data: 00  returns 0x00 (0000ms, 1314ms total)
T8F18 014:977 JLINK_ReadMem (0x200003FA, 0x0001 Bytes, ...) -- CPU is running -- CPU_ReadMem(1 bytes @ 0x200003FA) - Data: 00  returns 0x00 (0001ms, 1315ms total)
T8F18 014:978 JLINK_ReadMem (0x20000410, 0x0001 Bytes, ...) -- CPU is running -- CPU_ReadMem(1 bytes @ 0x20000410) - Data: 00  returns 0x00 (0001ms, 1316ms total)
T8F18 014:979 JLINK_ReadMem (0x200010FE, 0x0020 Bytes, ...) -- CPU is running -- CPU_ReadMem(32 bytes @ 0x200010FE) - Data: A5 0E 00 C6 20 02 02 4C 54 AB 00 93 6E 66 40 C8 ...  returns 0x00 (0001ms, 1317ms total)
T8F18 014:980 JLINK_ReadMem (0x200006A2, 0x0002 Bytes, ...) -- CPU is running -- CPU_ReadMem(2 bytes @ 0x200006A2) - Data: 00 04  returns 0x00 (0001ms, 1318ms total)
T8F18 014:981 JLINK_ReadMem (0x200006A2, 0x0002 Bytes, ...) -- CPU is running -- CPU_ReadMem(2 bytes @ 0x200006A2) - Data: 00 04  returns 0x00 (0000ms, 1318ms total)
T8F18 014:982 JLINK_ReadMem (0x200003A4, 0x0004 Bytes, ...) -- CPU is running -- CPU_ReadMem(4 bytes @ 0x200003A4) - Data: 00 00 C8 41  returns 0x00 (0000ms, 1318ms total)
T8F18 014:982 JLINK_ReadMem (0x20000005, 0x0001 Bytes, ...) -- CPU is running -- CPU_ReadMem(1 bytes @ 0x20000005) - Data: 00  returns 0x00 (0001ms, 1319ms total)
T8F18 014:995 JLINK_ReadMem (0x40000C00, 0x0010 Bytes, ...) -- CPU is running -- CPU_ReadMem(16 bytes @ 0x40000C00) - Data: 81 00 00 00 00 00 00 00 00 00 00 00 00 00 00 00  returns 0x00 (0001ms, 1320ms total)
T8F18 014:996 JLINK_ReadMem (0x40000C10, 0x0004 Bytes, ...) -- CPU is running -- CPU_ReadMem(4 bytes @ 0x40000C10) - Data: 1F 00 00 00  returns 0x00 (0001ms, 1321ms total)
T8F18 014:997 JLINK_ReadMem (0x40000C18, 0x0014 Bytes, ...) -- CPU is running -- CPU_ReadMem(20 bytes @ 0x40000C18) - Data: 78 78 00 00 78 78 00 00 33 33 00 00 8D 1B 00 00 ...  returns 0x00 (0001ms, 1322ms total)
T8F18 014:998 JLINK_ReadMem (0x40000C2C, 0x0004 Bytes, ...) -- CPU is running -- CPU_ReadMem(4 bytes @ 0x40000C2C) - Data: 0F 27 00 00  returns 0x00 (0000ms, 1322ms total)
T8F18 014:998 JLINK_ReadMem (0x40000C34, 0x000C Bytes, ...) -- CPU is running -- CPU_ReadMem(12 bytes @ 0x40000C34) - Data: E8 03 00 00 E8 03 00 00 E8 03 00 00  returns 0x00 (0001ms, 1323ms total)
T8F18 014:999 JLINK_ReadMem (0x40000C40, 0x0004 Bytes, ...) -- CPU is running -- CPU_ReadMem(4 bytes @ 0x40000C40) - Data: E8 03 00 00  returns 0x00 (0000ms, 1323ms total)
T8F18 014:999 JLINK_ReadMem (0x40000C48, 0x0008 Bytes, ...) -- CPU is running -- CPU_ReadMem(8 bytes @ 0x40000C48) - Data: 00 00 00 00 81 00 00 00  returns 0x00 (0001ms, 1324ms total)
